Circuit: * C:\Users\angel\Desktop\Bryx\SPICE\GPIO_ground_closure_converter\MOS_driver\MOS_driver.asc

A1: all pins shorted together -- ignoring.
Direct Newton iteration for .op point succeeded.
Semiconductor Device Operating Points:
                        --- MOSFET Transistors ---
Name:          m3          m1          m4          m2
Model:        nmos        nmos        pmos        pmos
Id:          1.03e-04    2.50e-04    5.48e-04    2.50e-04
Vgs:         5.00e+00    5.00e+00   -7.19e+00   -4.90e+00
Vds:         1.17e+00    9.90e+00    3.13e+00    2.10e+00
Vbs:         0.00e+00    0.00e+00    3.13e+00    2.10e+00
Vth:         0.00e+00    0.00e+00   -0.00e+00   -0.00e+00
Vdsat:       5.00e+00    5.00e+00   -1.03e+01   -7.00e+00
Gm:          2.34e-05    1.00e-04    6.26e-05    4.20e-05
Gds:         7.66e-05    0.00e+00    1.44e-04    9.80e-05
Gmb:         0.00e+00    0.00e+00    0.00e+00    0.00e+00
Cbd:         0.00e+00    0.00e+00    0.00e+00    0.00e+00
Cbs:         0.00e+00    0.00e+00    0.00e+00    0.00e+00
Cgsov:       0.00e+00    0.00e+00    0.00e+00    0.00e+00
Cgdov:       0.00e+00    0.00e+00    0.00e+00    0.00e+00
Cgbov:       0.00e+00    0.00e+00    0.00e+00    0.00e+00
Cgs:         0.00e+00    0.00e+00    0.00e+00    0.00e+00
Cgd:         0.00e+00    0.00e+00    0.00e+00    0.00e+00
Cgb:         0.00e+00    0.00e+00    0.00e+00    0.00e+00



Date: Thu Sep 23 12:03:37 2021
Total elapsed time: 0.071 seconds.

tnom = 27
temp = 27
method = trap
totiter = 36
traniter = 0
tranpoints = 0
accept = 0
rejected = 0
matrix size = 20
fillins = 1
solver = Normal
Matrix Compiler1: 666 bytes object code size
Matrix Compiler2:     118 opcodes
